Id,Time[ns],0:I²C: Address/Data
1,67108480.00,Start
2,67109860.00,Address write: D6
3,67117820.00,Write
4,67118980.00,ACK
5,67120380.00,Data write: FF
6,67129440.00,ACK
7,67130780.00,Data write: A3
8,67139860.00,ACK
9,67141200.00,Data write: 02
10,67150300.00,ACK
11,67152240.00,Stop
12,68677280.00,Start
13,68678540.00,Address write: D6
14,68686440.00,Write
15,68687600.00,ACK
16,68688960.00,Data write: FF
17,68698020.00,ACK
18,68699360.00,Data write: B7
19,68708440.00,ACK
20,68709780.00,Data write: 5A
21,68718860.00,ACK
22,68720720.00,Stop
23,70677260.00,Start
24,70678520.00,Address write: D6
25,70686440.00,Write
26,70687600.00,ACK
27,70688960.00,Data write: FF
28,70698020.00,ACK
29,70699360.00,Data write: B7
30,70708420.00,ACK
31,70709780.00,Data write: 00
32,70718860.00,ACK
33,70720720.00,Stop
34,85676920.00,Start
35,85678180.00,Address write: D6
36,85686080.00,Write
37,85687240.00,ACK
38,85688600.00,Data write: FF
39,85697660.00,ACK
40,85699000.00,Data write: F0
41,85708080.00,ACK
42,85709440.00,Data write: 20
43,85718520.00,ACK
44,85719880.00,Data write: 20
45,85728960.00,ACK
46,85730320.00,Data write: 02
47,85739400.00,ACK
48,85740760.00,Data write: 02
49,85749840.00,ACK
50,85751180.00,Data write: 19
51,85760260.00,ACK
52,85761620.00,Data write: 29
53,85770700.00,ACK
54,85772040.00,Data write: 19
55,85781120.00,ACK
56,85782480.00,Data write: 29
57,85791540.00,ACK
58,85793400.00,Stop
59,85795260.00,Start
60,85796520.00,Address write: D6
61,85804440.00,Write
62,85805600.00,ACK
63,85806960.00,Data write: FF
64,85816020.00,ACK
65,85817360.00,Data write: F0
66,85826440.00,ACK
67,85828520.00,Start repeat
68,85829780.00,Address read: D7
69,85837680.00,Read
70,85838840.00,ACK
71,85840240.00,Data read: 01
72,85849220.00,NACK
73,85850980.00,Stop
74,87677020.00,Start
75,87678340.00,Address write: D6
76,87686240.00,Write
77,87687400.00,ACK
78,87688780.00,Data write: FF
79,87697840.00,ACK
80,87699180.00,Data write: B4
81,87708260.00,ACK
82,87709620.00,Data write: 00
83,87718720.00,ACK
84,87720600.00,Stop
85,89676780.00,Start
86,89678040.00,Address write: D6
87,89685940.00,Write
88,89687120.00,ACK
89,89688480.00,Data write: FF
90,89697520.00,ACK
91,89698880.00,Data write: A3
92,89707940.00,ACK
93,89709300.00,Data write: 00
94,89718400.00,ACK
95,89720260.00,Stop
96,91676720.00,Start
97,91678000.00,Address write: D6
98,91685900.00,Write
99,91687060.00,ACK
100,91688420.00,Data write: FF
101,91697480.00,ACK
102,91698820.00,Data write: B4
103,91707900.00,ACK
104,91709240.00,Data write: 01
105,91718340.00,ACK
106,91720200.00,Stop
107,98676580.00,Start
108,98677840.00,Address write: DE
109,98685740.00,Write
110,98686900.00,ACK
111,98688260.00,Data write: AC
112,98697340.00,ACK
113,98699200.00,Stop
114,99676600.00,Start
115,99677860.00,Address write: DE
116,99685760.00,Write
117,99686920.00,ACK
118,99688280.00,Data write: AC
119,99697360.00,ACK
120,99699220.00,Stop
121,100676520.00,Start
122,100677800.00,Address write: DE
123,100685700.00,Write
124,100686860.00,ACK
125,100688220.00,Data write: AC
126,100697300.00,ACK
127,100699160.00,Stop
128,101676560.00,Start
129,101677820.00,Address write: DE
130,101685720.00,Write
131,101686880.00,ACK
132,101688240.00,Data write: AC
133,101697320.00,ACK
134,101699180.00,Stop
135,102676480.00,Start
136,102677760.00,Address write: DE
137,102685660.00,Write
138,102686820.00,ACK
139,102688180.00,Data write: AC
140,102697260.00,ACK
141,102699120.00,Stop
142,103676500.00,Start
143,103677780.00,Address write: DE
144,103685680.00,Write
145,103686840.00,ACK
146,103688200.00,Data write: AC
147,103697280.00,ACK
148,103699140.00,Stop
149,104676440.00,Start
150,104677700.00,Address write: DE
151,104685600.00,Write
152,104686760.00,ACK
153,104688120.00,Data write: AC
154,104697200.00,ACK
155,104699060.00,Stop
156,105676460.00,Start
157,105677720.00,Address write: DE
158,105685640.00,Write
159,105686780.00,ACK
160,105688140.00,Data write: AC
161,105697220.00,ACK
162,105699100.00,Stop
163,106676400.00,Start
164,106677660.00,Address write: DE
165,106685560.00,Write
166,106686720.00,ACK
167,106688080.00,Data write: AC
168,106697160.00,ACK
169,106699020.00,Stop
170,107676420.00,Start
171,107677680.00,Address write: DE
172,107685580.00,Write
173,107686740.00,ACK
174,107688100.00,Data write: AC
175,107697180.00,ACK
176,107699040.00,Stop
177,108676340.00,Start
178,108677620.00,Address write: DE
179,108685520.00,Write
180,108686680.00,ACK
181,108688040.00,Data write: AC
182,108697120.00,ACK
183,108698980.00,Stop
184,109676360.00,Start
185,109677640.00,Address write: DE
186,109685540.00,Write
187,109686700.00,ACK
188,109688060.00,Data write: AC
189,109697140.00,ACK
190,109699000.00,Stop
191,110676300.00,Start
192,110677580.00,Address write: DE
193,110685480.00,Write
194,110686640.00,ACK
195,110688000.00,Data write: AC
196,110697080.00,ACK
197,110698940.00,Stop
198,111676320.00,Start
199,111677600.00,Address write: DE
200,111685500.00,Write
201,111686660.00,ACK
202,111688020.00,Data write: AC
203,111697100.00,ACK
204,111698960.00,Stop
205,112676260.00,Start
206,112677520.00,Address write: DE
207,112685420.00,Write
208,112686580.00,ACK
209,112687940.00,Data write: AC
210,112697020.00,ACK
211,112698880.00,Stop
212,113676280.00,Start
213,113677540.00,Address write: DE
214,113685440.00,Write
215,113686600.00,ACK
216,113687960.00,Data write: AC
217,113697040.00,ACK
218,113698900.00,Stop
219,114676200.00,Start
220,114677480.00,Address write: DE
221,114685380.00,Write
222,114686540.00,ACK
223,114687900.00,Data write: AC
224,114696980.00,ACK
225,114698840.00,Stop
226,115676240.00,Start
227,115677500.00,Address write: DE
228,115685400.00,Write
229,115686560.00,ACK
230,115687920.00,Data write: AC
231,115697000.00,ACK
232,115698860.00,Stop
233,116676160.00,Start
234,116677440.00,Address write: DE
235,116685340.00,Write
236,116686500.00,ACK
237,116687860.00,Data write: AC
238,116696940.00,ACK
239,116698800.00,Stop
240,117676180.00,Start
241,117677460.00,Address write: DE
242,117685360.00,Write
243,117686520.00,ACK
244,117687880.00,Data write: AC
245,117696960.00,ACK
246,117698820.00,Stop
247,118680780.00,Start
248,118682160.00,Address write: DE
249,118690120.00,Write
250,118691280.00,ACK
251,118692660.00,Data write: 86
252,118701740.00,ACK
253,118703100.00,Data write: 01
254,118712180.00,ACK
255,118713540.00,Data write: 82
256,118722620.00,ACK
257,118723980.00,Data write: 01
258,118733060.00,ACK
259,118734400.00,Data write: 01
260,118743500.00,ACK
261,118744840.00,Data write: 00
262,118753940.00,ACK
263,118755300.00,Data write: 00
264,118764380.00,ACK
265,118765740.00,Data write: 01
266,118774820.00,ACK
267,118776180.00,Data write: 00
268,118785260.00,ACK
269,118787220.00,Stop
270,120676220.00,Start
271,120677500.00,Address read: DF
272,120685400.00,Read
273,120686560.00,ACK
274,120687940.00,Data read: 33
275,120696920.00,ACK
276,120698060.00,Data read: 01
277,120707020.00,ACK
278,120708160.00,Data read: 28
279,120717100.00,ACK
280,120718240.00,Data read: 01
281,120727200.00,ACK
282,120728340.00,Data read: 02
283,120737280.00,ACK
284,120738420.00,Data read: 05
285,120747360.00,ACK
286,120748500.00,Data read: 00
287,120757460.00,ACK
288,120758600.00,Data read: 01
289,120767540.00,ACK
290,120768680.00,Data read: 01
291,120777640.00,ACK
292,120778780.00,Data read: 00
293,120787720.00,ACK
294,120788860.00,Data read: 01
295,120797820.00,ACK
296,120798960.00,Data read: 00
297,120807900.00,ACK
298,120809040.00,Data read: 00
299,120817980.00,ACK
300,120819120.00,Data read: 00
301,120828080.00,NACK
302,120829820.00,Stop
303,120836020.00,Start
304,120837380.00,Address write: DE
305,120845340.00,Write
306,120846500.00,ACK
307,120847880.00,Data write: B8
308,120856960.00,ACK
309,120858320.00,Data write: 01
310,120867400.00,ACK
311,120868740.00,Data write: 82
312,120877840.00,ACK
313,120879180.00,Data write: 03
314,120888280.00,ACK
315,120889620.00,Data write: 21
316,120898700.00,ACK
317,120900060.00,Data write: 06
318,120909140.00,ACK
319,120910480.00,Data write: 00
320,120919580.00,ACK
321,120920940.00,Data write: 01
322,120930020.00,ACK
323,120931380.00,Data write: 0A
324,120940460.00,ACK
325,120941800.00,Data write: 09
326,120950880.00,ACK
327,120952240.00,Data write: 00
328,120961340.00,ACK
329,120962680.00,Data write: 00
330,120971780.00,ACK
331,120973120.00,Data write: 00
332,120982220.00,ACK
333,120983580.00,Data write: 00
334,120992660.00,ACK
335,120994020.00,Data write: 01
336,121003100.00,ACK
337,121005020.00,Stop
338,345671020.00,Start
339,345672320.00,Address read: DF
340,345680220.00,Read
341,345681380.00,ACK
342,345682760.00,Data read: 50
343,345691740.00,ACK
344,345692880.00,Data read: 01
345,345701820.00,ACK
346,345702960.00,Data read: 28
347,345711920.00,ACK
348,345713060.00,Data read: 03
349,345722000.00,ACK
350,345723140.00,Data read: 22
351,345732100.00,ACK
352,345733240.00,Data read: 01
353,345742180.00,ACK
354,345743320.00,Data read: 00
355,345752280.00,ACK
356,345753420.00,Data read: 01
357,345762360.00,ACK
358,345763500.00,Data read: 00
359,345772460.00,ACK
360,345773580.00,Data read: 00
361,345782520.00,NACK
362,345784280.00,Stop
363,345801320.00,Start
364,345802680.00,Address write: DE
365,345810640.00,Write
366,345811800.00,ACK
367,345813180.00,Data write: C4
368,345822260.00,ACK
369,345823620.00,Data write: 01
370,345832700.00,ACK
371,345834060.00,Data write: 82
372,345843140.00,ACK
373,345844480.00,Data write: 03
374,345853580.00,ACK
375,345854920.00,Data write: 01
376,345864020.00,ACK
377,345865360.00,Data write: 44
378,345874440.00,ACK
379,345875800.00,Data write: 00
380,345884880.00,ACK
381,345886240.00,Data write: 01
382,345895320.00,ACK
383,345896680.00,Data write: F8
384,345905740.00,ACK
385,345907100.00,Data write: 00
386,345916180.00,ACK
387,345917540.00,Data write: 00
388,345926640.00,ACK
389,345927980.00,Data write: 00
390,345937080.00,ACK
391,345938420.00,Data write: 01
392,345947520.00,ACK
393,345948860.00,Data write: 00
394,345957960.00,ACK
395,345959300.00,Data write: 40
396,345968400.00,ACK
397,345969740.00,Data write: 00
398,345978840.00,ACK
399,345980200.00,Data write: 20
400,345989280.00,ACK
401,345990620.00,Data write: CD
402,345999700.00,ACK
403,346001040.00,Data write: 82
404,346010120.00,ACK
405,346011480.00,Data write: FF
406,346020540.00,ACK
407,346021880.00,Data write: 1F
408,346030940.00,ACK
409,346032300.00,Data write: C3
410,346041380.00,ACK
411,346042720.00,Data write: 1B
412,346051800.00,ACK
413,346053140.00,Data write: FF
414,346062180.00,ACK
415,346063540.00,Data write: 1F
416,346072600.00,ACK
417,346073960.00,Data write: C3
418,346083040.00,ACK
419,346084380.00,Data write: 1B
420,346093460.00,ACK
421,346094800.00,Data write: FF
422,346103860.00,ACK
423,346105200.00,Data write: 1F
424,346114260.00,ACK
425,346115620.00,Data write: C3
426,346124700.00,ACK
427,346126040.00,Data write: 1B
428,346135120.00,ACK
429,346136460.00,Data write: FF
430,346145520.00,ACK
431,346146860.00,Data write: 1F
432,346155920.00,ACK
433,346157280.00,Data write: C3
434,346166360.00,ACK
435,346167700.00,Data write: 1B
436,346176780.00,ACK
437,346178120.00,Data write: FF
438,346187180.00,ACK
439,346188520.00,Data write: 1F
440,346197580.00,ACK
441,346198940.00,Data write: C3
442,346208000.00,ACK
443,346209360.00,Data write: 1B
444,346218440.00,ACK
445,346219780.00,Data write: FF
446,346228840.00,ACK
447,346230180.00,Data write: 1F
448,346239240.00,ACK
449,346240600.00,Data write: C3
450,346249660.00,ACK
451,346251020.00,Data write: 1B
452,346260100.00,ACK
453,346261440.00,Data write: FF
454,346270500.00,ACK
455,346271840.00,Data write: 1F
456,346280900.00,ACK
457,346282260.00,Data write: 00
458,346291360.00,ACK
459,346292700.00,Data write: 00
460,346301800.00,ACK
461,346303140.00,Data write: 00
462,346312240.00,ACK
463,346313580.00,Data write: 00
464,346322680.00,ACK
465,346324040.00,Data write: 00
466,346333140.00,ACK
467,346334480.00,Data write: 00
468,346343580.00,ACK
469,346344920.00,Data write: 00
470,346354020.00,ACK
471,346355360.00,Data write: 00
472,346364460.00,ACK
473,346365820.00,Data write: 00
474,346374900.00,ACK
475,346376260.00,Data write: 00
476,346385360.00,ACK
477,346386700.00,Data write: 00
478,346395800.00,ACK
479,346397140.00,Data write: 00
480,346406240.00,ACK
481,346407580.00,Data write: C3
482,346416660.00,ACK
483,346418000.00,Data write: 1B
484,346427080.00,ACK
485,346428420.00,Data write: FF
486,346437480.00,ACK
487,346438840.00,Data write: 1F
488,346447900.00,ACK
489,346449240.00,Data write: C3
490,346458320.00,ACK
491,346459680.00,Data write: 1B
492,346468740.00,ACK
493,346470080.00,Data write: FF
494,346479140.00,ACK
495,346480500.00,Data write: 1F
496,346489560.00,ACK
497,346490900.00,Data write: 00
498,346500000.00,ACK
499,346501360.00,Data write: 00
500,346510440.00,ACK
501,346511800.00,Data write: 00
502,346520900.00,ACK
503,346522240.00,Data write: 00
504,346531340.00,ACK
505,346532680.00,Data write: C3
506,346541760.00,ACK
507,346543100.00,Data write: 1B
508,346552180.00,ACK
509,346553520.00,Data write: FF
510,346562580.00,ACK
511,346563940.00,Data write: 1F
512,346573000.00,ACK
513,346574340.00,Data write: AD
514,346583420.00,ACK
515,346584760.00,Data write: 83
516,346593840.00,ACK
517,346595180.00,Data write: FF
518,346604240.00,ACK
519,346605600.00,Data write: 1F
520,346614660.00,ACK
521,346616580.00,Stop
522,346671100.00,Start
523,346672380.00,Address read: DF
524,346680280.00,Read
525,346681440.00,ACK
526,346682820.00,Data read: 00
527,346691800.00,ACK
528,346692940.00,Data read: 00
529,346701900.00,ACK
530,346703040.00,Data read: 00
531,346711980.00,ACK
532,346713120.00,Data read: 00
533,346722080.00,ACK
534,346723220.00,Data read: 00
535,346732160.00,ACK
536,346733300.00,Data read: 00
537,346742260.00,ACK
538,346743400.00,Data read: 00
539,346752340.00,ACK
540,346753480.00,Data read: 00
541,346762420.00,ACK
542,346763560.00,Data read: 00
543,346772520.00,ACK
544,346773660.00,Data read: 00
545,346782600.00,NACK
546,346784340.00,Stop
547,354715660.00,Start
548,354717060.00,Address write: D6
549,354725020.00,Write
550,354726180.00,ACK
551,354727580.00,Data write: FF
552,354736640.00,ACK
553,354737980.00,Data write: A3
554,354747060.00,ACK
555,354748400.00,Data write: 02
556,354757500.00,ACK
557,354759440.00,Stop
558,356670700.00,Start
559,356671960.00,Address write: D6
560,356679880.00,Write
561,356681040.00,ACK
562,356682400.00,Data write: FF
563,356691460.00,ACK
564,356692800.00,Data write: B7
565,356701860.00,ACK
566,356703220.00,Data write: 5A
567,356712280.00,ACK
568,356714140.00,Stop
569,358670700.00,Start
570,358671960.00,Address write: D6
571,358679860.00,Write
572,358681020.00,ACK
573,358682380.00,Data write: FF
574,358691440.00,ACK
575,358692780.00,Data write: B7
576,358701860.00,ACK
577,358703200.00,Data write: 00
578,358712300.00,ACK
579,358714160.00,Stop
580,373670340.00,Start
581,373671620.00,Address write: D6
582,373679520.00,Write
583,373680680.00,ACK
584,373682040.00,Data write: FF
585,373691100.00,ACK
586,373692440.00,Data write: F0
587,373701520.00,ACK
588,373702860.00,Data write: 20
589,373711960.00,ACK
590,373713300.00,Data write: 20
591,373722400.00,ACK
592,373723740.00,Data write: 02
593,373732840.00,ACK
594,373734180.00,Data write: 02
595,373743280.00,ACK
596,373744620.00,Data write: 19
597,373753700.00,ACK
598,373755060.00,Data write: 29
599,373764120.00,ACK
600,373765480.00,Data write: 19
601,373774560.00,ACK
602,373775900.00,Data write: 29
603,373784980.00,ACK
604,373786840.00,Stop
605,373788700.00,Start
606,373789960.00,Address write: D6
607,373797860.00,Write
608,373799020.00,ACK
609,373800400.00,Data write: FF
610,373809460.00,ACK
611,373810800.00,Data write: F0
612,373819880.00,ACK
613,373821940.00,Start repeat
614,373823220.00,Address read: D7
615,373831120.00,Read
616,373832280.00,ACK
617,373833680.00,Data read: 01
618,373842660.00,NACK
619,373844400.00,Stop
620,375670460.00,Start
621,375671760.00,Address write: D6
622,375679660.00,Write
623,375680820.00,ACK
624,375682220.00,Data write: FF
625,375691280.00,ACK
626,375692620.00,Data write: B4
627,375701700.00,ACK
628,375703060.00,Data write: 00
629,375712140.00,ACK
630,375714020.00,Stop
631,377670200.00,Start
632,377671480.00,Address write: D6
633,377679380.00,Write
634,377680540.00,ACK
635,377681900.00,Data write: FF
636,377690960.00,ACK
637,377692300.00,Data write: A3
638,377701380.00,ACK
639,377702740.00,Data write: 00
640,377711820.00,ACK
641,377713680.00,Stop
642,379670160.00,Start
643,379671420.00,Address write: D6
644,379679320.00,Write
645,379680480.00,ACK
646,379681840.00,Data write: FF
647,379690900.00,ACK
648,379692240.00,Data write: B4
649,379701340.00,ACK
650,379702680.00,Data write: 01
651,379711760.00,ACK
652,379713620.00,Stop
653,5090926220.00,Start
654,5090927620.00,Address write: D6
655,5090935560.00,Write
656,5090936740.00,ACK
657,5090938120.00,Data write: FF
658,5090947180.00,ACK
659,5090948520.00,Data write: A3
660,5090957600.00,ACK
661,5090958940.00,Data write: 02
662,5090968040.00,ACK
663,5090970000.00,Stop
664,5092562680.00,Start
665,5092563940.00,Address write: D6
666,5092571860.00,Write
667,5092573020.00,ACK
668,5092574380.00,Data write: FF
669,5092583440.00,ACK
670,5092584780.00,Data write: B7
671,5092593840.00,ACK
672,5092595200.00,Data write: 5A
673,5092604260.00,ACK
674,5092606120.00,Stop
675,5094562660.00,Start
676,5094563940.00,Address write: D6
677,5094571840.00,Write
678,5094573000.00,ACK
679,5094574360.00,Data write: FF
680,5094583420.00,ACK
681,5094584760.00,Data write: B7
682,5094593840.00,ACK
683,5094595180.00,Data write: 00
684,5094604280.00,ACK
685,5094606140.00,Stop
686,5109562320.00,Start
687,5109563600.00,Address write: D6
688,5109571500.00,Write
689,5109572660.00,ACK
690,5109574020.00,Data write: FF
691,5109583080.00,ACK
692,5109584420.00,Data write: F0
693,5109593500.00,ACK
694,5109594840.00,Data write: 20
695,5109603940.00,ACK
696,5109605280.00,Data write: 20
697,5109614380.00,ACK
698,5109615720.00,Data write: 02
699,5109624820.00,ACK
700,5109626160.00,Data write: 02
701,5109635260.00,ACK
702,5109636600.00,Data write: 19
703,5109645680.00,ACK
704,5109647020.00,Data write: 29
705,5109656100.00,ACK
706,5109657460.00,Data write: 19
707,5109666540.00,ACK
708,5109667880.00,Data write: 29
709,5109676960.00,ACK
710,5109678820.00,Stop
711,5109680680.00,Start
712,5109681940.00,Address write: D6
713,5109689840.00,Write
714,5109691000.00,ACK
715,5109692380.00,Data write: FF
716,5109701440.00,ACK
717,5109702780.00,Data write: F0
718,5109711860.00,ACK
719,5109713920.00,Start repeat
720,5109715200.00,Address read: D7
721,5109723100.00,Read
722,5109724260.00,ACK
723,5109725660.00,Data read: 01
724,5109734640.00,NACK
725,5109736380.00,Stop
726,5111562440.00,Start
727,5111563740.00,Address write: D6
728,5111571660.00,Write
729,5111572820.00,ACK
730,5111574200.00,Data write: FF
731,5111583260.00,ACK
732,5111584600.00,Data write: B4
733,5111593680.00,ACK
734,5111595020.00,Data write: 00
735,5111604120.00,ACK
736,5111606000.00,Stop
737,5113562180.00,Start
738,5113563460.00,Address write: D6
739,5113571360.00,Write
740,5113572520.00,ACK
741,5113573880.00,Data write: FF
742,5113582940.00,ACK
743,5113584280.00,Data write: A3
744,5113593360.00,ACK
745,5113594700.00,Data write: 00
746,5113603800.00,ACK
747,5113605660.00,Stop
748,5115562140.00,Start
749,5115563400.00,Address write: D6
750,5115571300.00,Write
751,5115572460.00,ACK
752,5115573820.00,Data write: FF
753,5115582880.00,ACK
754,5115584220.00,Data write: B4
755,5115593300.00,ACK
756,5115594660.00,Data write: 01
757,5115603740.00,ACK
758,5115605600.00,Stop
759,5122561980.00,Start
760,5122563260.00,Address write: DE
761,5122571160.00,Write
762,5122572320.00,ACK
763,5122573680.00,Data write: AC
764,5122582760.00,ACK
765,5122584620.00,Stop
766,5123562000.00,Start
767,5123563280.00,Address write: DE
768,5123571180.00,Write
769,5123572340.00,ACK
770,5123573700.00,Data write: AC
771,5123582780.00,ACK
772,5123584640.00,Stop
773,5124561940.00,Start
774,5124563200.00,Address write: DE
775,5124571120.00,Write
776,5124572280.00,ACK
777,5124573640.00,Data write: AC
778,5124582700.00,ACK
779,5124584560.00,Stop
780,5125561960.00,Start
781,5125563240.00,Address write: DE
782,5125571140.00,Write
783,5125572300.00,ACK
784,5125573660.00,Data write: AC
785,5125582740.00,ACK
786,5125584600.00,Stop
787,5126561900.00,Start
788,5126563160.00,Address write: DE
789,5126571060.00,Write
790,5126572220.00,ACK
791,5126573580.00,Data write: AC
792,5126582660.00,ACK
793,5126584520.00,Stop
794,5127561920.00,Start
795,5127563180.00,Address write: DE
796,5127571080.00,Write
797,5127572240.00,ACK
798,5127573600.00,Data write: AC
799,5127582680.00,ACK
800,5127584540.00,Stop
801,5128561840.00,Start
802,5128563120.00,Address write: DE
803,5128571020.00,Write
804,5128572180.00,ACK
805,5128573540.00,Data write: AC
806,5128582620.00,ACK
807,5128584480.00,Stop
808,5129561880.00,Start
809,5129563140.00,Address write: DE
810,5129571040.00,Write
811,5129572200.00,ACK
812,5129573560.00,Data write: AC
813,5129582640.00,ACK
814,5129584500.00,Stop
815,5130561800.00,Start
816,5130563080.00,Address write: DE
817,5130570980.00,Write
818,5130572140.00,ACK
819,5130573500.00,Data write: AC
820,5130582560.00,ACK
821,5130584420.00,Stop
822,5131561820.00,Start
823,5131563100.00,Address write: DE
824,5131571000.00,Write
825,5131572160.00,ACK
826,5131573520.00,Data write: AC
827,5131582600.00,ACK
828,5131584460.00,Stop
829,5132561760.00,Start
830,5132563020.00,Address write: DE
831,5132570920.00,Write
832,5132572080.00,ACK
833,5132573460.00,Data write: AC
834,5132582520.00,ACK
835,5132584380.00,Stop
836,5133561780.00,Start
837,5133563040.00,Address write: DE
838,5133570940.00,Write
839,5133572100.00,ACK
840,5133573480.00,Data write: AC
841,5133582540.00,ACK
842,5133584400.00,Stop
843,5134561720.00,Start
844,5134562980.00,Address write: DE
845,5134570880.00,Write
846,5134572040.00,ACK
847,5134573400.00,Data write: AC
848,5134582480.00,ACK
849,5134584340.00,Stop
850,5135561740.00,Start
851,5135563000.00,Address write: DE
852,5135570900.00,Write
853,5135572060.00,ACK
854,5135573420.00,Data write: AC
855,5135582500.00,ACK
856,5135584360.00,Stop
857,5136561660.00,Start
858,5136562940.00,Address write: DE
859,5136570840.00,Write
860,5136572000.00,ACK
861,5136573360.00,Data write: AC
862,5136582440.00,ACK
863,5136584300.00,Stop
864,5137561680.00,Start
865,5137562960.00,Address write: DE
866,5137570860.00,Write
867,5137572020.00,ACK
868,5137573380.00,Data write: AC
869,5137582460.00,ACK
870,5137584320.00,Stop
871,5138561620.00,Start
872,5138562880.00,Address write: DE
873,5138570800.00,Write
874,5138571960.00,ACK
875,5138573320.00,Data write: AC
876,5138582380.00,ACK
877,5138584240.00,Stop
878,5139561640.00,Start
879,5139562920.00,Address write: DE
880,5139570820.00,Write
881,5139571980.00,ACK
882,5139573340.00,Data write: AC
883,5139582420.00,ACK
884,5139584280.00,Stop
885,5140561580.00,Start
886,5140562840.00,Address write: DE
887,5140570740.00,Write
888,5140571900.00,ACK
889,5140573260.00,Data write: AC
890,5140582340.00,ACK
891,5140584200.00,Stop
892,5141561600.00,Start
893,5141562860.00,Address write: DE
894,5141570760.00,Write
895,5141571920.00,ACK
896,5141573280.00,Data write: AC
897,5141582360.00,ACK
898,5141584220.00,Stop
899,5142566180.00,Start
900,5142567560.00,Address write: DE
901,5142575520.00,Write
902,5142576680.00,ACK
903,5142578080.00,Data write: 86
904,5142587160.00,ACK
905,5142588520.00,Data write: 01
906,5142597600.00,ACK
907,5142598940.00,Data write: 82
908,5142608040.00,ACK
909,5142609380.00,Data write: 01
910,5142618480.00,ACK
911,5142619820.00,Data write: 01
912,5142628900.00,ACK
913,5142630260.00,Data write: 00
914,5142639360.00,ACK
915,5142640700.00,Data write: 00
916,5142649800.00,ACK
917,5142651140.00,Data write: 01
918,5142660240.00,ACK
919,5142661580.00,Data write: 00
920,5142670680.00,ACK
921,5142672640.00,Stop
922,5144561620.00,Start
923,5144562920.00,Address read: DF
924,5144570800.00,Read
925,5144571960.00,ACK
926,5144573340.00,Data read: 33
927,5144582340.00,ACK
928,5144583480.00,Data read: 01
929,5144592420.00,ACK
930,5144593560.00,Data read: 28
931,5144602520.00,ACK
932,5144603660.00,Data read: 01
933,5144612600.00,ACK
934,5144613740.00,Data read: 02
935,5144622700.00,ACK
936,5144623840.00,Data read: 05
937,5144632780.00,ACK
938,5144633920.00,Data read: 00
939,5144642860.00,ACK
940,5144644000.00,Data read: 01
941,5144652960.00,ACK
942,5144654100.00,Data read: 01
943,5144663040.00,ACK
944,5144664180.00,Data read: 00
945,5144673140.00,ACK
946,5144674280.00,Data read: 01
947,5144683220.00,ACK
948,5144684360.00,Data read: 00
949,5144693320.00,ACK
950,5144694460.00,Data read: 00
951,5144703400.00,ACK
952,5144704540.00,Data read: 00
953,5144713480.00,NACK
954,5144715220.00,Stop
955,5144721440.00,Start
956,5144722800.00,Address write: DE
957,5144730740.00,Write
958,5144731900.00,ACK
959,5144733300.00,Data write: B8
960,5144742380.00,ACK
961,5144743720.00,Data write: 01
962,5144752820.00,ACK
963,5144754160.00,Data write: 82
964,5144763240.00,ACK
